T4424 3860:841 SEGGER J-Link V6.32i Log File (0000ms, 0980ms total)
T4424 3860:841 DLL Compiled: Jul 24 2018 15:19:55 (0000ms, 0980ms total)
T4424 3860:841 Logging started @ 2019-10-10 11:07 (0000ms, 0980ms total)
T4424 3860:841 JLINK_SetWarnOutHandler(...) (0000ms, 0980ms total)
T4424 3860:841 JLINK_OpenEx(...)
Firmware: J-Link V9 compiled Apr 20 2018 16:47:26
Hardware: V9.60
S/N: 69650140
Feature(s): RDI, GDB, FlashDL, FlashBP, JFlash
TELNET listener socket opened on port 19021Device "CORTEX-M0" selected.WEBSRV 
Starting webserver (0020ms, 1000ms total)
T4424 3860:841 WEBSRV Webserver running on local port 19080 (0020ms, 1000ms total)
T4424 3860:841   returns O.K. (0020ms, 1000ms total)
T4424 3860:861 JLINK_GetEmuCaps()  returns 0xB9FF7BBF (0000ms, 1000ms total)
T4424 3860:861 JLINK_TIF_GetAvailable(...) (0001ms, 1001ms total)
T4424 3860:862 JLINK_SetErrorOutHandler(...) (0000ms, 1001ms total)
T4424 3860:862 JLINK_ExecCommand("ProjectFile = "D:\github_project\htctracker_custom\code\MDK-ARM\JLinkSettings.ini"", ...). Device "CORTEX-M0" selected.  returns 0x00 (0002ms, 1003ms total)
T4424 3860:864 JLINK_ExecCommand("Device = STM32F051K6Ux", ...). Device "CORTEX-M0" selected.  returns 0x00 (0001ms, 1004ms total)
T4424 3860:865 JLINK_ExecCommand("DisableConnectionTimeout", ...).   returns 0x01 (0000ms, 1004ms total)
T4424 3860:865 JLINK_GetHardwareVersion()  returns 0x17700 (0001ms, 1005ms total)
T4424 3860:866 JLINK_GetDLLVersion()  returns 63209 (0000ms, 1005ms total)
T4424 3860:866 JLINK_GetFirmwareString(...) (0000ms, 1005ms total)
T4424 3860:866 JLINK_GetDLLVersion()  returns 63209 (0000ms, 1005ms total)
T4424 3860:866 JLINK_GetCompileDateTime() (0000ms, 1005ms total)
T4424 3860:866 JLINK_GetFirmwareString(...) (0000ms, 1005ms total)
T4424 3860:866 JLINK_GetHardwareVersion()  returns 0x17700 (0000ms, 1005ms total)
T4424 3860:866 JLINK_TIF_Select(JLINKARM_TIF_SWD)  returns 0x00 (0000ms, 1005ms total)
T4424 3860:866 JLINK_SetSpeed(500) (0000ms, 1005ms total)
T4424 3860:866 JLINK_GetId() >0x10B TIF>Found SW-DP with ID 0x0BB11477 >0x0D TIF> >0x28 TIF> >0x0D TIF> >0x28 TIF> >0x0D TIF> >0x28 TIF> >0x0D TIF> >0x28 TIF> >0x0D TIF> >0x21 TIF> >0x0D TIF> >0x28 TIF>Scanning AP map to find all available APs >0x0D TIF> >0x28 TIF> >0x0D TIF> >0x21 TIF> >0x0D TIF> >0x21 TIF> >0x0D TIF> >0x28 TIF> >0x0D TIF> >0x21 TIF> >0x0D TIF> >0x21 TIF>AP[1]: Stopped AP scan as end of AP map has been reachedAP[0]: AHB-AP (IDR: 0x04770021)Iterating through AP map to find AHB-AP to use
 >0x42 TIF> >0x28 TIF> >0x0D TIF> >0x28 TIF> >0x0D TIF> >0x21 TIF> >0x0D TIF> >0x21 TIF> >0x42 TIF> >0x28 TIF> >0x0D TIF> >0x28 TIF> >0x0D TIF> >0x28 TIF> >0x0D TIF> >0x21 TIF> >0x0D TIF> >0x21 TIF>AP[0]: Core foundAP[0]: AHB-AP ROM base: 0xE00FF000 >0x0D TIF> >0x28 TIF> >0x0D TIF> >0x28 TIF> >0x0D TIF> >0x28 TIF> >0x0D TIF> >0x21 TIF> >0x0D TIF> >0x21 TIF>CPUID register: 0x410CC200. Implementer code: 0x41 (ARM)Found Cortex-M0 r0p0, Little endian. -- Max. mem block: 0x00010EE0
 -- CPU_ReadMem(4 bytes @ 0xE000EDF0) -- CPU_WriteMem(4 bytes @ 0xE000EDF0) -- CPU_ReadMem(4 bytes @ 0xE0002000)FPUnit: 4 code (BP) slots and 0 literal slots -- CPU_ReadMem(4 bytes @ 0xE000EDFC) -- CPU_WriteMem(4 bytes @ 0xE000EDFC) -- CPU_ReadMem(4 bytes @ 0xE0001000) -- CPU_WriteMem(4 bytes @ 0xE0001000)CoreSight components:ROMTbl[0] @ E00FF000 -- CPU_ReadMem(16 bytes @ 0xE00FF000) -- CPU_ReadMem(16 bytes @ 0xE000EFF0) -- CPU_ReadMem(16 bytes @ 0xE000EFE0)
ROMTbl[0][0]: E000E000, CID: B105E00D, PID: 000BB008 SCS -- CPU_ReadMem(16 bytes @ 0xE0001FF0) -- CPU_ReadMem(16 bytes @ 0xE0001FE0)ROMTbl[0][1]: E0001000, CID: B105E00D, PID: 000BB00A DWT -- CPU_ReadMem(16 bytes @ 0xE0002FF0) -- CPU_ReadMem(16 bytes @ 0xE0002FE0)ROMTbl[0][2]: E0002000, CID: B105E00D, PID: 000BB00B FPB >0x0D TIF> >0x21 TIF>  returns 0x0BB11477 (0128ms, 1133ms total)
T4424 3860:995 JLINK_GetDLLVersion()  returns 63209 (0000ms, 1133ms total)
T4424 3860:995 JLINK_CORE_GetFound()  returns 0x60000FF (0000ms, 1133ms total)
T4424 3860:995 JLINK_GetDebugInfo(0x100 = JLINKARM_ROM_TABLE_ADDR_INDEX) -- Value=0xE00FF000  returns 0x00 (0000ms, 1133ms total)
T4424 3860:995 JLINK_GetDebugInfo(0x100 = JLINKARM_ROM_TABLE_ADDR_INDEX) -- Value=0xE00FF000  returns 0x00 (0000ms, 1133ms total)
T4424 3860:995 JLINK_GetDebugInfo(0x101 = JLINKARM_DEBUG_INFO_ETM_ADDR_INDEX) -- Value=0x00000000  returns 0x00 (0000ms, 1133ms total)
T4424 3860:995 JLINK_ReadMemEx(0xE0041FF0, 0x0010 Bytes, ..., Flags = 0x02000004) -- CPU_ReadMem(16 bytes @ 0xE0041FF0) - Data: 00 00 00 00 00 00 00 00 00 00 00 00 00 00 00 00  returns 0x10 (0001ms, 1134ms total)
T4424 3860:996 JLINK_GetDebugInfo(0x102 = JLINKARM_DEBUG_INFO_MTB_ADDR_INDEX) -- Value=0x00000000  returns 0x00 (0000ms, 1134ms total)
T4424 3860:996 JLINK_GetDebugInfo(0x103 = JLINKARM_DEBUG_INFO_TPIU_ADDR_INDEX) -- Value=0x00000000  returns 0x00 (0000ms, 1134ms total)
T4424 3860:996 JLINK_ReadMemEx(0xE0040FF0, 0x0010 Bytes, ..., Flags = 0x02000004) -- CPU_ReadMem(16 bytes @ 0xE0040FF0) - Data: 00 00 00 00 00 00 00 00 00 00 00 00 00 00 00 00  returns 0x10 (0001ms, 1135ms total)
T4424 3860:997 JLINK_GetDebugInfo(0x104 = JLINKARM_DEBUG_INFO_ITM_ADDR_INDEX) -- Value=0xE0000000  returns 0x00 (0000ms, 1135ms total)
T4424 3860:997 JLINK_GetDebugInfo(0x105 = JLINKARM_DEBUG_INFO_DWT_ADDR_INDEX) -- Value=0xE0001000  returns 0x00 (0000ms, 1135ms total)
T4424 3860:997 JLINK_GetDebugInfo(0x106 = JLINKARM_DEBUG_INFO_FPB_ADDR_INDEX) -- Value=0xE0002000  returns 0x00 (0000ms, 1135ms total)
T4424 3860:997 JLINK_GetDebugInfo(0x107 = JLINKARM_DEBUG_INFO_NVIC_ADDR_INDEX) -- Value=0xE000E000  returns 0x00 (0000ms, 1135ms total)
T4424 3860:997 JLINK_GetDebugInfo(0x10C = JLINKARM_DEBUG_INFO_DBG_ADDR_INDEX) -- Value=0xE000EDF0  returns 0x00 (0000ms, 1135ms total)
T4424 3860:997 JLINK_GetDebugInfo(0x01 = Unknown) -- Value=0x00000000  returns 0x00 (0000ms, 1135ms total)
T4424 3860:997 JLINK_ReadMemU32(0xE000ED00, 0x0001 Items, ...) -- CPU_ReadMem(4 bytes @ 0xE000ED00) - Data: 00 C2 0C 41  returns 0x01 (0001ms, 1136ms total)
T4424 3860:998 JLINK_GetDebugInfo(0x10F = JLINKARM_DEBUG_INFO_HAS_CORTEX_M_SECURITY_EXT_INDEX) -- Value=0x00000000  returns 0x00 (0000ms, 1136ms total)
T4424 3860:998 JLINK_SetResetType(JLINKARM_CM3_RESET_TYPE_NORMAL)  returns JLINKARM_CM3_RESET_TYPE_NORMAL (0000ms, 1136ms total)
T4424 3860:998 JLINK_Reset() -- CPU is running -- CPU_WriteMem(4 bytes @ 0xE000EDF0) -- CPU is running -- CPU_WriteMem(4 bytes @ 0xE000EDFC)Reset: Halt core after reset via DEMCR.VC_CORERESET. >0x35 TIF>Reset: Reset device via AIRCR.SYSRESETREQ. -- CPU is running -- CPU_WriteMem(4 bytes @ 0xE000ED0C) >0x0D TIF> >0x28 TIF> -- CPU_ReadMem(4 bytes @ 0xE000EDF0) -- CPU_ReadMem(4 bytes @ 0xE000EDF0) -- CPU is running -- CPU_WriteMem(4 bytes @ 0xE000EDF0) -- CPU is running -- CPU_WriteMem(4 bytes @ 0xE000EDFC)
 -- CPU_ReadMem(4 bytes @ 0xE000EDF0) -- CPU_WriteMem(4 bytes @ 0xE0002000) -- CPU_ReadMem(4 bytes @ 0xE000EDFC) -- CPU_ReadMem(4 bytes @ 0xE0001000) -- CPU_WriteMem(4 bytes @ 0xE0001000) (0077ms, 1213ms total)
T4424 3861:075 JLINK_ReadReg(R15 (PC))  returns 0x080000D0 (0000ms, 1213ms total)
T4424 3861:075 JLINK_ReadReg(XPSR)  returns 0xC1000000 (0000ms, 1213ms total)
T4424 3861:076 JLINK_Halt()  returns 0x00 (0000ms, 1214ms total)
T4424 3861:076 JLINK_ReadMemU32(0xE000EDF0, 0x0001 Items, ...) -- CPU_ReadMem(4 bytes @ 0xE000EDF0) - Data: 03 00 03 00  returns 0x01 (0000ms, 1214ms total)
T4424 3861:076 JLINK_WriteU32(0xE000EDF0, 0xA05F0003) -- CPU_WriteMem(4 bytes @ 0xE000EDF0)  returns 0x00 (0001ms, 1215ms total)
T4424 3861:077 JLINK_WriteU32(0xE000EDFC, 0x01000000) -- CPU_WriteMem(4 bytes @ 0xE000EDFC)  returns 0x00 (0001ms, 1216ms total)
T4424 3861:078 JLINK_GetHWStatus(...)  returns 0x00 (0000ms, 1216ms total)
T4424 3861:078 JLINK_GetNumBPUnits(Type = 0xFFFFFF00)  returns 0x04 (0000ms, 1216ms total)
T4424 3861:078 JLINK_GetNumBPUnits(Type = 0xF0)  returns 0x2000 (0000ms, 1216ms total)
T4424 3861:078 JLINK_GetNumWPUnits()  returns 0x02 (0000ms, 1216ms total)
T4424 3861:078 JLINK_GetSpeed()  returns 0x1F4 (0000ms, 1216ms total)
T4424 3861:078 JLINK_ReadMemU32(0xE000E004, 0x0001 Items, ...) -- CPU_ReadMem(4 bytes @ 0xE000E004) - Data: 00 00 00 00  returns 0x01 (0001ms, 1217ms total)
T4424 3861:079 JLINK_ReadReg(R15 (PC))  returns 0x080000D0 (0000ms, 1217ms total)
T4424 3861:079 JLINK_ReadReg(XPSR)  returns 0xC1000000 (0000ms, 1217ms total)
T4424 3861:156 JLINK_SetResetType(JLINKARM_CM3_RESET_TYPE_NORMAL)  returns JLINKARM_CM3_RESET_TYPE_NORMAL (0000ms, 1217ms total)
T4424 3861:156 JLINK_Reset() -- CPU_WriteMem(4 bytes @ 0xE000EDF0) -- CPU_WriteMem(4 bytes @ 0xE000EDFC)Reset: Halt core after reset via DEMCR.VC_CORERESET. >0x35 TIF>Reset: Reset device via AIRCR.SYSRESETREQ. -- CPU_WriteMem(4 bytes @ 0xE000ED0C) >0x0D TIF> >0x28 TIF> -- CPU_ReadMem(4 bytes @ 0xE000EDF0) -- CPU_ReadMem(4 bytes @ 0xE000EDF0) -- CPU_WriteMem(4 bytes @ 0xE000EDF0) -- CPU_WriteMem(4 bytes @ 0xE000EDFC) -- CPU_ReadMem(4 bytes @ 0xE000EDF0) -- CPU_WriteMem(4 bytes @ 0xE0002000)
 -- CPU_ReadMem(4 bytes @ 0xE000EDFC) -- CPU_ReadMem(4 bytes @ 0xE0001000) -- CPU_WriteMem(4 bytes @ 0xE0001000) (0079ms, 1296ms total)
T4424 3861:235 JLINK_ReadReg(R15 (PC))  returns 0x080000D0 (0001ms, 1297ms total)
T4424 3861:236 JLINK_ReadReg(XPSR)  returns 0xC1000000 (0000ms, 1297ms total)
T4424 3861:236 JLINK_ReadMemEx(0x080000D0, 0x003C Bytes, ..., Flags = 0x02000000) -- CPU_ReadMem(60 bytes @ 0x080000D0) - Data: 04 48 80 47 04 48 00 47 FE E7 FE E7 FE E7 FE E7 ...  returns 0x3C (0002ms, 1299ms total)
T4424 3861:415 JLINK_ReadMemEx(0x40012400, 0x0014 Bytes, ..., Flags = 0x02000004) -- CPU_ReadMem(20 bytes @ 0x40012400) - Data: 00 00 00 00 00 00 00 00 00 00 00 00 00 00 00 00 ...  returns 0x14 (0001ms, 1300ms total)
T4424 3861:416 JLINK_ReadMemEx(0x40012414, 0x0004 Bytes, ..., Flags = 0x02000004) -- CPU_ReadMem(4 bytes @ 0x40012414) - Data: 00 00 00 00  returns 0x04 (0001ms, 1301ms total)
T4424 3861:417 JLINK_ReadMemEx(0x40012420, 0x0004 Bytes, ..., Flags = 0x02000004) -- CPU_ReadMem(4 bytes @ 0x40012420) - Data: 00 00 00 00  returns 0x04 (0001ms, 1302ms total)
T4424 3861:418 JLINK_ReadMemEx(0x40012428, 0x0004 Bytes, ..., Flags = 0x02000004) -- CPU_ReadMem(4 bytes @ 0x40012428) - Data: 00 00 00 00  returns 0x04 (0000ms, 1302ms total)
T4424 3861:418 JLINK_ReadMemEx(0x40012440, 0x0004 Bytes, ..., Flags = 0x02000004) -- CPU_ReadMem(4 bytes @ 0x40012440) - Data: 00 00 00 00  returns 0x04 (0001ms, 1303ms total)
T4424 3861:419 JLINK_ReadMemEx(0x40012708, 0x0004 Bytes, ..., Flags = 0x02000004) -- CPU_ReadMem(4 bytes @ 0x40012708) - Data: 00 00 00 00  returns 0x04 (0001ms, 1304ms total)
T4424 3863:085 JLINK_ReadReg(R0)  returns 0xFFFFFFFF (0001ms, 1305ms total)
T4424 3863:086 JLINK_ReadReg(R1)  returns 0xFFFFFFFF (0000ms, 1305ms total)
T4424 3863:086 JLINK_ReadReg(R2)  returns 0xFFFFFFFF (0000ms, 1305ms total)
T4424 3863:086 JLINK_ReadReg(R3)  returns 0xFFFFFFFF (0000ms, 1305ms total)
T4424 3863:086 JLINK_ReadReg(R4)  returns 0xFFFFFFFF (0000ms, 1305ms total)
T4424 3863:086 JLINK_ReadReg(R5)  returns 0xFFFFFFFF (0000ms, 1305ms total)
T4424 3863:086 JLINK_ReadReg(R6)  returns 0xFFFFFFFF (0000ms, 1305ms total)
T4424 3863:086 JLINK_ReadReg(R7)  returns 0xFFFFFFFF (0000ms, 1305ms total)
T4424 3863:086 JLINK_ReadReg(R8)  returns 0xFFFFFFFF (0000ms, 1305ms total)
T4424 3863:086 JLINK_ReadReg(R9)  returns 0xFFFFFFFF (0000ms, 1305ms total)
T4424 3863:086 JLINK_ReadReg(R10)  returns 0xFFFFFFFF (0000ms, 1305ms total)
T4424 3863:086 JLINK_ReadReg(R11)  returns 0xFFFFFFFF (0000ms, 1305ms total)
T4424 3863:086 JLINK_ReadReg(R12)  returns 0xFFFFFFFF (0000ms, 1305ms total)
T4424 3863:086 JLINK_ReadReg(R13 (SP))  returns 0x200004E0 (0000ms, 1305ms total)
T4424 3863:086 JLINK_ReadReg(R14)  returns 0xFFFFFFFF (0000ms, 1305ms total)
T4424 3863:086 JLINK_ReadReg(R15 (PC))  returns 0x080000D0 (0000ms, 1305ms total)
T4424 3863:086 JLINK_ReadReg(XPSR)  returns 0xC1000000 (0000ms, 1305ms total)
T4424 3863:086 JLINK_ReadReg(MSP)  returns 0x200004E0 (0000ms, 1305ms total)
T4424 3863:086 JLINK_ReadReg(PSP)  returns 0xFFFFFFFC (0000ms, 1305ms total)
T4424 3863:086 JLINK_ReadReg(CFBP)  returns 0x00000000 (0000ms, 1305ms total)
T4424 3863:086 JLINK_ReadMemEx(0x20000000, 0x0001 Bytes, ..., Flags = 0x02000000) -- CPU_ReadMem(1 bytes @ 0x20000000) - Data: 7A  returns 0x01 (0001ms, 1306ms total)
T4424 3863:095 JLINK_ReadMemEx(0x20000004, 0x0002 Bytes, ..., Flags = 0x02000000) -- CPU_ReadMem(2 bytes @ 0x20000004) - Data: 00 00  returns 0x02 (0001ms, 1307ms total)
T4424 3863:100 JLINK_ReadMemEx(0x20000006, 0x0002 Bytes, ..., Flags = 0x02000000) -- CPU_ReadMem(2 bytes @ 0x20000006) - Data: 00 00  returns 0x02 (0001ms, 1308ms total)
T4424 3863:105 JLINK_ReadMemEx(0x20000002, 0x0001 Bytes, ..., Flags = 0x02000000) -- CPU_ReadMem(1 bytes @ 0x20000002) - Data: 00  returns 0x01 (0001ms, 1309ms total)
T46FC 3863:136 JLINK_ReadMemEx(0x080000D0, 0x0002 Bytes, ..., Flags = 0x02000000) -- CPU_ReadMem(2 bytes @ 0x080000D0) - Data: 04 48  returns 0x02 (0001ms, 1310ms total)
T46FC 3863:137 JLINK_SetBPEx(Addr = 0x08001BBC, Type = 0xFFFFFFF2)  returns 0x00000001 (0000ms, 1310ms total)
T46FC 3863:137 JLINK_Go() -- CPU_WriteMem(4 bytes @ 0xE0002000) -- CPU_ReadMem(4 bytes @ 0xE0001000) -- CPU_WriteMem(4 bytes @ 0xE0001000) -- CPU_WriteMem(4 bytes @ 0xE0002008) -- CPU_WriteMem(4 bytes @ 0xE000200C) -- CPU_WriteMem(4 bytes @ 0xE0002010) -- CPU_WriteMem(4 bytes @ 0xE0002014) -- CPU_WriteMem(4 bytes @ 0xE0001004) (0007ms, 1317ms total)
T46FC 3863:246 JLINK_IsHalted()  returns TRUE (0010ms, 1327ms total)
T46FC 3863:256 JLINK_Halt()  returns 0x00 (0000ms, 1317ms total)
T46FC 3863:256 JLINK_IsHalted()  returns TRUE (0000ms, 1317ms total)
T46FC 3863:256 JLINK_IsHalted()  returns TRUE (0000ms, 1317ms total)
T46FC 3863:256 JLINK_IsHalted()  returns TRUE (0000ms, 1317ms total)
T46FC 3863:256 JLINK_ReadReg(R15 (PC))  returns 0x08001BBC (0000ms, 1317ms total)
T46FC 3863:256 JLINK_ReadReg(XPSR)  returns 0x61000000 (0000ms, 1317ms total)
T46FC 3863:256 JLINK_ClrBPEx(BPHandle = 0x00000001)  returns 0x00 (0000ms, 1317ms total)
T46FC 3863:256 JLINK_ReadMemU32(0xE000ED30, 0x0001 Items, ...) -- CPU_ReadMem(4 bytes @ 0xE000ED30) - Data: 02 00 00 00  returns 0x01 (0001ms, 1318ms total)
T46FC 3863:257 JLINK_ReadMemU32(0xE0001028, 0x0001 Items, ...) -- CPU_ReadMem(4 bytes @ 0xE0001028) - Data: 00 00 00 00  returns 0x01 (0001ms, 1319ms total)
T46FC 3863:258 JLINK_ReadMemU32(0xE0001038, 0x0001 Items, ...) -- CPU_ReadMem(4 bytes @ 0xE0001038) - Data: 00 00 00 00  returns 0x01 (0001ms, 1320ms total)
T46FC 3863:259 JLINK_ReadReg(R0)  returns 0x08001BBD (0000ms, 1320ms total)
T46FC 3863:259 JLINK_ReadReg(R1)  returns 0x200004E0 (0000ms, 1320ms total)
T46FC 3863:259 JLINK_ReadReg(R2)  returns 0x00000000 (0000ms, 1320ms total)
T46FC 3863:259 JLINK_ReadReg(R3)  returns 0x08001BAD (0000ms, 1320ms total)
T46FC 3863:259 JLINK_ReadReg(R4)  returns 0x08001E54 (0000ms, 1320ms total)
T46FC 3863:259 JLINK_ReadReg(R5)  returns 0x00000001 (0000ms, 1320ms total)
T46FC 3863:259 JLINK_ReadReg(R6)  returns 0x08001E54 (0000ms, 1320ms total)
T46FC 3863:259 JLINK_ReadReg(R7)  returns 0xFFFFFFFF (0000ms, 1320ms total)
T46FC 3863:259 JLINK_ReadReg(R8)  returns 0xFFFFFFFF (0000ms, 1320ms total)
T46FC 3863:259 JLINK_ReadReg(R9)  returns 0xFFFFFFFF (0000ms, 1320ms total)
T46FC 3863:259 JLINK_ReadReg(R10)  returns 0xFFFFFFFF (0000ms, 1320ms total)
T46FC 3863:259 JLINK_ReadReg(R11)  returns 0xFFFFFFFF (0000ms, 1320ms total)
T46FC 3863:259 JLINK_ReadReg(R12)  returns 0xFFFFFFFF (0000ms, 1320ms total)
T46FC 3863:259 JLINK_ReadReg(R13 (SP))  returns 0x200004E0 (0000ms, 1320ms total)
T46FC 3863:259 JLINK_ReadReg(R14)  returns 0x08000159 (0000ms, 1320ms total)
T46FC 3863:259 JLINK_ReadReg(R15 (PC))  returns 0x08001BBC (0000ms, 1320ms total)
T46FC 3863:259 JLINK_ReadReg(XPSR)  returns 0x61000000 (0000ms, 1320ms total)
T46FC 3863:259 JLINK_ReadReg(MSP)  returns 0x200004E0 (0000ms, 1320ms total)
T46FC 3863:259 JLINK_ReadReg(PSP)  returns 0xFFFFFFFC (0000ms, 1320ms total)
T46FC 3863:259 JLINK_ReadReg(CFBP)  returns 0x00000000 (0000ms, 1320ms total)
T4424 3863:260 JLINK_ReadMemEx(0x20000000, 0x0001 Bytes, ..., Flags = 0x02000000) -- CPU_ReadMem(1 bytes @ 0x20000000) - Data: 00  returns 0x01 (0001ms, 1321ms total)
T4424 3863:262 JLINK_ReadMemEx(0x20000004, 0x0002 Bytes, ..., Flags = 0x02000000) -- CPU_ReadMem(2 bytes @ 0x20000004) - Data: 00 00  returns 0x02 (0000ms, 1321ms total)
T4424 3863:262 JLINK_ReadMemEx(0x20000006, 0x0002 Bytes, ..., Flags = 0x02000000) -- CPU_ReadMem(2 bytes @ 0x20000006) - Data: 00 00  returns 0x02 (0001ms, 1322ms total)
T4424 3863:263 JLINK_ReadMemEx(0x20000002, 0x0001 Bytes, ..., Flags = 0x02000000) -- CPU_ReadMem(1 bytes @ 0x20000002) - Data: 00  returns 0x01 (0001ms, 1323ms total)
T4424 3863:264 JLINK_ReadMemEx(0x40012400, 0x0014 Bytes, ..., Flags = 0x02000004) -- CPU_ReadMem(20 bytes @ 0x40012400) - Data: 00 00 00 00 00 00 00 00 00 00 00 00 00 00 00 00 ...  returns 0x14 (0001ms, 1324ms total)
T4424 3863:265 JLINK_ReadMemEx(0x40012414, 0x0004 Bytes, ..., Flags = 0x02000004) -- CPU_ReadMem(4 bytes @ 0x40012414) - Data: 00 00 00 00  returns 0x04 (0001ms, 1325ms total)
T4424 3863:266 JLINK_ReadMemEx(0x40012420, 0x0004 Bytes, ..., Flags = 0x02000004) -- CPU_ReadMem(4 bytes @ 0x40012420) - Data: 00 00 00 00  returns 0x04 (0001ms, 1326ms total)
T4424 3863:267 JLINK_ReadMemEx(0x40012428, 0x0004 Bytes, ..., Flags = 0x02000004) -- CPU_ReadMem(4 bytes @ 0x40012428) - Data: 00 00 00 00  returns 0x04 (0001ms, 1327ms total)
T4424 3863:268 JLINK_ReadMemEx(0x40012440, 0x0004 Bytes, ..., Flags = 0x02000004) -- CPU_ReadMem(4 bytes @ 0x40012440) - Data: 00 00 00 00  returns 0x04 (0000ms, 1327ms total)
T4424 3863:268 JLINK_ReadMemEx(0x40012708, 0x0004 Bytes, ..., Flags = 0x02000004) -- CPU_ReadMem(4 bytes @ 0x40012708) - Data: 00 00 00 00  returns 0x04 (0001ms, 1328ms total)
T4424 3863:273 JLINK_ReadMemEx(0x08001ABC, 0x003C Bytes, ..., Flags = 0x02000000) -- CPU_ReadMem(128 bytes @ 0x08001A80) -- Updating DA cache (128 bytes @ 0x08001A80) -- Read from DA cache (60 bytes @ 0x08001ABC) - Data: 03 63 01 23 43 61 10 BD 00 2C 01 40 00 04 00 40 ...  returns 0x3C (0003ms, 1331ms total)
T4424 3863:276 JLINK_ReadMemEx(0x08001AF8, 0x003C Bytes, ..., Flags = 0x02000000) -- CPU_ReadMem(64 bytes @ 0x08001B00) -- Updating DA cache (64 bytes @ 0x08001B00) -- Read from DA cache (60 bytes @ 0x08001AF8) - Data: 70 B5 0C 46 00 21 81 68 FF 26 36 02 0D 46 B5 43 ...  returns 0x3C (0003ms, 1334ms total)
T4424 3863:279 JLINK_ReadMemEx(0x08001B34, 0x003C Bytes, ..., Flags = 0x02000000) -- CPU_ReadMem(64 bytes @ 0x08001B40) -- Updating DA cache (64 bytes @ 0x08001B40) -- Read from DA cache (60 bytes @ 0x08001B34) - Data: 14 46 00 21 00 22 02 6A 05 6A 6D 08 6D 00 05 62 ...  returns 0x3C (0002ms, 1336ms total)
T4424 3863:281 JLINK_ReadMemEx(0x08001B70, 0x003C Bytes, ..., Flags = 0x02000000) -- CPU_ReadMem(64 bytes @ 0x08001B80) -- Updating DA cache (64 bytes @ 0x08001B80) -- Read from DA cache (60 bytes @ 0x08001B70) - Data: 05 6A 10 26 B5 43 05 62 81 69 02 6A 0F 26 36 03 ...  returns 0x3C (0002ms, 1338ms total)
T4424 3863:283 JLINK_ReadMemEx(0x08001BAC, 0x003C Bytes, ..., Flags = 0x02000000) -- CPU_ReadMem(64 bytes @ 0x08001BC0) -- Updating DA cache (64 bytes @ 0x08001BC0) -- Read from DA cache (60 bytes @ 0x08001BAC) - Data: 00 20 01 E0 01 C1 12 1F 00 2A FB D1 70 47 00 00 ...  returns 0x3C (0003ms, 1341ms total)
T46FC 3863:744 JLINK_ReadMemEx(0x08001BBC, 0x0002 Bytes, ..., Flags = 0x02000000) -- Read from DA cache (2 bytes @ 0x08001BBC) - Data: 86 B0  returns 0x02 (0000ms, 1341ms total)
T46FC 3863:744 JLINK_Go() -- CPU_ReadMem(4 bytes @ 0xE0001000) -- CPU_WriteMem(4 bytes @ 0xE0001000) -- CPU_WriteMem(4 bytes @ 0xE0002008) (0004ms, 1345ms total)
T46FC 3863:849 JLINK_IsHalted()  returns FALSE (0000ms, 1345ms total)
T46FC 3863:950 JLINK_IsHalted()  returns FALSE (0000ms, 1345ms total)
T46FC 3864:051 JLINK_IsHalted()  returns FALSE (0000ms, 1345ms total)
T46FC 3864:153 JLINK_IsHalted()  returns FALSE (0000ms, 1345ms total)
T4424 3864:255 JLINK_ReadMemEx(0x20000000, 0x0001 Bytes, ..., Flags = 0x02000000) -- CPU_ReadMem(1 bytes @ 0x20000000) - Data: 00  returns 0x01 (0001ms, 1346ms total)
T4424 3864:257 JLINK_ReadMemEx(0x20000004, 0x0002 Bytes, ..., Flags = 0x02000000) -- CPU_ReadMem(2 bytes @ 0x20000004) - Data: 00 00  returns 0x02 (0001ms, 1347ms total)
T4424 3864:258 JLINK_ReadMemEx(0x20000006, 0x0002 Bytes, ..., Flags = 0x02000000) -- CPU_ReadMem(2 bytes @ 0x20000006) - Data: 00 00  returns 0x02 (0000ms, 1347ms total)
T4424 3864:258 JLINK_ReadMemEx(0x20000002, 0x0001 Bytes, ..., Flags = 0x02000000) -- CPU_ReadMem(1 bytes @ 0x20000002) - Data: 00  returns 0x01 (0001ms, 1348ms total)
T4424 3864:259 JLINK_ReadMemEx(0x40012400, 0x0014 Bytes, ..., Flags = 0x02000004) -- CPU_ReadMem(20 bytes @ 0x40012400) - Data: 00 00 00 00 00 00 00 00 00 00 00 00 10 04 00 00 ...  returns 0x14 (0001ms, 1349ms total)
T4424 3864:260 JLINK_ReadMemEx(0x40012414, 0x0004 Bytes, ..., Flags = 0x02000004) -- CPU_ReadMem(4 bytes @ 0x40012414) - Data: 07 00 00 00  returns 0x04 (0001ms, 1350ms total)
T4424 3864:261 JLINK_ReadMemEx(0x40012420, 0x0004 Bytes, ..., Flags = 0x02000004) -- CPU_ReadMem(4 bytes @ 0x40012420) - Data: 00 00 FF 0F  returns 0x04 (0001ms, 1351ms total)
T4424 3864:262 JLINK_ReadMemEx(0x40012428, 0x0004 Bytes, ..., Flags = 0x02000004) -- CPU_ReadMem(4 bytes @ 0x40012428) - Data: 01 00 00 00  returns 0x04 (0001ms, 1352ms total)
T4424 3864:263 JLINK_ReadMemEx(0x40012440, 0x0004 Bytes, ..., Flags = 0x02000004) -- CPU_ReadMem(4 bytes @ 0x40012440) - Data: 00 00 00 00  returns 0x04 (0001ms, 1353ms total)
T4424 3864:264 JLINK_ReadMemEx(0x40012708, 0x0004 Bytes, ..., Flags = 0x02000004) -- CPU_ReadMem(4 bytes @ 0x40012708) - Data: 00 00 00 00  returns 0x04 (0000ms, 1353ms total)
T46FC 3864:278 JLINK_IsHalted()  returns FALSE (0000ms, 1353ms total)
T46FC 3864:380 JLINK_IsHalted()  returns FALSE (0000ms, 1353ms total)
T46FC 3864:482 JLINK_IsHalted()  returns FALSE (0000ms, 1353ms total)
T46FC 3864:583 JLINK_IsHalted()  returns FALSE (0000ms, 1353ms total)
T46FC 3864:685 JLINK_IsHalted()  returns ERROR (0013ms, 1366ms total)
T46FC 3864:698 JLINK_Halt()CPU could not be halted  returns 0x01 (0007ms, 1360ms total)
T46FC 3864:705 JLINK_IsHalted()  returns ERROR (0013ms, 1373ms total)
T46FC 3864:718 JLINK_IsHalted()  returns ERROR (0013ms, 1373ms total)
T46FC 3864:731 JLINK_IsHalted()  returns ERROR (0013ms, 1373ms total)
T46FC 3864:744 JLINK_ReadReg(R15 (PC)) -- CPU is running
  ***** Error: Can not read register 15 (R15) while CPU is running  returns 0x00000000 (0013ms, 1373ms total)
T46FC 3864:758 JLINK_ReadReg(XPSR) -- CPU is running
  ***** Error: Can not read register 16 (XPSR) while CPU is running  returns 0x00000000 (0013ms, 1386ms total)
T46FC 3864:772 JLINK_ReadMemU32(0xE000ED30, 0x0001 Items, ...) -- CPU_ReadMem(4 bytes @ 0xE000ED30)  returns 0xFFFFFFFF (0003ms, 1389ms total)
T46FC 3864:776 JLINK_ReadReg(R0) -- CPU is running
  ***** Error: Can not read register 0 (R0) while CPU is running  returns 0x00000000 (0013ms, 1402ms total)
T46FC 3864:789 JLINK_ReadReg(R1) -- CPU is running
  ***** Error: Can not read register 1 (R1) while CPU is running  returns 0x00000000 (0013ms, 1415ms total)
T46FC 3864:804 JLINK_ReadReg(R2) -- CPU is running
  ***** Error: Can not read register 2 (R2) while CPU is running  returns 0x00000000 (0013ms, 1428ms total)
T46FC 3864:817 JLINK_ReadReg(R3) -- CPU is running
  ***** Error: Can not read register 3 (R3) while CPU is running  returns 0x00000000 (0013ms, 1441ms total)
T46FC 3864:830 JLINK_ReadReg(R4) -- CPU is running
  ***** Error: Can not read register 4 (R4) while CPU is running  returns 0x00000000 (0013ms, 1454ms total)
T46FC 3864:843 JLINK_ReadReg(R5) -- CPU is running
  ***** Error: Can not read register 5 (R5) while CPU is running  returns 0x00000000 (0013ms, 1467ms total)
T46FC 3864:857 JLINK_ReadReg(R6) -- CPU is running
  ***** Error: Can not read register 6 (R6) while CPU is running  returns 0x00000000 (0013ms, 1480ms total)
T46FC 3864:870 JLINK_ReadReg(R7) -- CPU is running
  ***** Error: Can not read register 7 (R7) while CPU is running  returns 0x00000000 (0013ms, 1493ms total)
T46FC 3864:884 JLINK_ReadReg(R8) -- CPU is running
  ***** Error: Can not read register 8 (R8) while CPU is running  returns 0x00000000 (0013ms, 1506ms total)
T46FC 3864:897 JLINK_ReadReg(R9) -- CPU is running
  ***** Error: Can not read register 9 (R9) while CPU is running  returns 0x00000000 (0014ms, 1520ms total)
T46FC 3864:911 JLINK_ReadReg(R10) -- CPU is running
  ***** Error: Can not read register 10 (R10) while CPU is running  returns 0x00000000 (0013ms, 1533ms total)
T46FC 3864:924 JLINK_ReadReg(R11) -- CPU is running
  ***** Error: Can not read register 11 (R11) while CPU is running  returns 0x00000000 (0012ms, 1545ms total)
T46FC 3864:936 JLINK_ReadReg(R12) -- CPU is running
  ***** Error: Can not read register 12 (R12) while CPU is running  returns 0x00000000 (0013ms, 1558ms total)
T46FC 3864:949 JLINK_ReadReg(R13 (SP)) -- CPU is running
  ***** Error: Can not read register 13 (R13) while CPU is running  returns 0x00000000 (0013ms, 1571ms total)
T46FC 3864:963 JLINK_ReadReg(R14) -- CPU is running
  ***** Error: Can not read register 14 (R14) while CPU is running  returns 0x00000000 (0013ms, 1584ms total)
T46FC 3864:977 JLINK_ReadReg(R15 (PC)) -- CPU is running
  ***** Error: Can not read register 15 (R15) while CPU is running  returns 0x00000000 (0013ms, 1597ms total)
T46FC 3864:991 JLINK_ReadReg(XPSR) -- CPU is running
  ***** Error: Can not read register 16 (XPSR) while CPU is running  returns 0x00000000 (0013ms, 1610ms total)
T46FC 3865:004 JLINK_ReadReg(MSP) -- CPU is running
  ***** Error: Can not read register 17 (MSP) while CPU is running  returns 0x00000000 (0013ms, 1623ms total)
T46FC 3865:017 JLINK_ReadReg(PSP) -- CPU is running
  ***** Error: Can not read register 18 (PSP) while CPU is running  returns 0x00000000 (0013ms, 1636ms total)
T46FC 3865:030 JLINK_ReadReg(CFBP) -- CPU is running
  ***** Error: Can not read register 20 (CFBP) while CPU is running  returns 0x00000000 (0013ms, 1649ms total)
T4424 3865:043 JLINK_ReadMemEx(0x20000000, 0x0001 Bytes, ..., Flags = 0x02000000) -- CPU_ReadMem(1 bytes @ 0x20000000) - Data: AA  returns 0xFFFFFFFF (0004ms, 1653ms total)
T4424 3865:048 JLINK_ReadMemEx(0x20000004, 0x0002 Bytes, ..., Flags = 0x02000000) -- CPU_ReadMem(2 bytes @ 0x20000004) - Data: AA AA  returns 0xFFFFFFFF (0004ms, 1657ms total)
T4424 3865:057 JLINK_ReadMemEx(0x20000006, 0x0002 Bytes, ..., Flags = 0x02000000) -- CPU_ReadMem(2 bytes @ 0x20000006) - Data: AA AA  returns 0xFFFFFFFF (0004ms, 1661ms total)
T4424 3865:062 JLINK_ReadMemEx(0x20000002, 0x0001 Bytes, ..., Flags = 0x02000000) -- CPU_ReadMem(1 bytes @ 0x20000002) - Data: AA  returns 0xFFFFFFFF (0004ms, 1665ms total)
T4424 3865:066 JLINK_ReadMemEx(0x40012400, 0x0014 Bytes, ..., Flags = 0x02000004) -- CPU_ReadMem(20 bytes @ 0x40012400) - Data: AA AA AA AA AA AA AA AA AA AA AA AA AA AA AA AA ...  returns 0xFFFFFFFF (0004ms, 1669ms total)
T4424 3865:070 JLINK_ReadMemEx(0x40012400, 0x0004 Bytes, ..., Flags = 0x02000004) -- CPU_ReadMem(4 bytes @ 0x40012400) - Data: AA AA AA AA  returns 0xFFFFFFFF (0004ms, 1673ms total)
T4424 3865:074 JLINK_ReadMemEx(0x40012404, 0x0004 Bytes, ..., Flags = 0x02000004) -- CPU_ReadMem(4 bytes @ 0x40012404) - Data: AA AA AA AA  returns 0xFFFFFFFF (0004ms, 1677ms total)
T4424 3865:078 JLINK_ReadMemEx(0x40012408, 0x0004 Bytes, ..., Flags = 0x02000004) -- CPU_ReadMem(4 bytes @ 0x40012408) - Data: AA AA AA AA  returns 0xFFFFFFFF (0004ms, 1681ms total)
T4424 3865:082 JLINK_ReadMemEx(0x4001240C, 0x0004 Bytes, ..., Flags = 0x02000004) -- CPU_ReadMem(4 bytes @ 0x4001240C) - Data: AA AA AA AA  returns 0xFFFFFFFF (0003ms, 1684ms total)
T4424 3865:085 JLINK_ReadMemEx(0x40012410, 0x0004 Bytes, ..., Flags = 0x02000004) -- CPU_ReadMem(4 bytes @ 0x40012410) - Data: AA AA AA AA  returns 0xFFFFFFFF (0004ms, 1688ms total)
T4424 3865:089 JLINK_ReadMemEx(0x40012414, 0x0004 Bytes, ..., Flags = 0x02000004) -- CPU_ReadMem(4 bytes @ 0x40012414) - Data: AA AA AA AA  returns 0xFFFFFFFF (0004ms, 1692ms total)
T4424 3865:093 JLINK_ReadMemEx(0x40012414, 0x0004 Bytes, ..., Flags = 0x02000004) -- CPU_ReadMem(4 bytes @ 0x40012414) - Data: AA AA AA AA  returns 0xFFFFFFFF (0004ms, 1696ms total)
T4424 3865:097 JLINK_ReadMemEx(0x40012420, 0x0004 Bytes, ..., Flags = 0x02000004) -- CPU_ReadMem(4 bytes @ 0x40012420) - Data: AA AA AA AA  returns 0xFFFFFFFF (0004ms, 1700ms total)
T4424 3865:101 JLINK_ReadMemEx(0x40012420, 0x0004 Bytes, ..., Flags = 0x02000004) -- CPU_ReadMem(4 bytes @ 0x40012420) - Data: AA AA AA AA  returns 0xFFFFFFFF (0004ms, 1704ms total)
T4424 3865:105 JLINK_ReadMemEx(0x40012428, 0x0004 Bytes, ..., Flags = 0x02000004) -- CPU_ReadMem(4 bytes @ 0x40012428) - Data: AA AA AA AA  returns 0xFFFFFFFF (0004ms, 1708ms total)
T4424 3865:109 JLINK_ReadMemEx(0x40012428, 0x0004 Bytes, ..., Flags = 0x02000004) -- CPU_ReadMem(4 bytes @ 0x40012428) - Data: AA AA AA AA  returns 0xFFFFFFFF (0004ms, 1712ms total)
T4424 3865:113 JLINK_ReadMemEx(0x40012440, 0x0004 Bytes, ..., Flags = 0x02000004) -- CPU_ReadMem(4 bytes @ 0x40012440) - Data: AA AA AA AA  returns 0xFFFFFFFF (0003ms, 1715ms total)
T4424 3865:116 JLINK_ReadMemEx(0x40012440, 0x0004 Bytes, ..., Flags = 0x02000004) -- CPU_ReadMem(4 bytes @ 0x40012440) - Data: AA AA AA AA  returns 0xFFFFFFFF (0004ms, 1719ms total)
T4424 3865:120 JLINK_ReadMemEx(0x40012708, 0x0004 Bytes, ..., Flags = 0x02000004) -- CPU_ReadMem(4 bytes @ 0x40012708) - Data: AA AA AA AA  returns 0xFFFFFFFF (0004ms, 1723ms total)
T4424 3865:124 JLINK_ReadMemEx(0x40012708, 0x0004 Bytes, ..., Flags = 0x02000004) -- CPU_ReadMem(4 bytes @ 0x40012708) - Data: AA AA AA AA  returns 0xFFFFFFFF (0004ms, 1727ms total)
T4424 3865:159 JLINK_ReadMemEx(0x00000000, 0x003C Bytes, ..., Flags = 0x02000000) -- CPU_ReadMem(60 bytes @ 0x00000000) - Data: AA AA AA AA AA AA AA AA AA AA AA AA AA AA AA AA ...  returns 0xFFFFFFFF (0004ms, 1731ms total)
T4424 3865:163 JLINK_ReadMemEx(0x00000000, 0x003C Bytes, ..., Flags = 0x02000000) -- CPU_ReadMem(60 bytes @ 0x00000000) - Data: AA AA AA AA AA AA AA AA AA AA AA AA AA AA AA AA ...  returns 0xFFFFFFFF (0004ms, 1735ms total)
T4424 3865:167 JLINK_ReadMemEx(0x00000000, 0x003C Bytes, ..., Flags = 0x02000000) -- CPU_ReadMem(60 bytes @ 0x00000000) - Data: AA AA AA AA AA AA AA AA AA AA AA AA AA AA AA AA ...  returns 0xFFFFFFFF (0004ms, 1739ms total)
T4424 3865:171 JLINK_ReadMemEx(0x00000002, 0x0002 Bytes, ..., Flags = 0x02000000) -- CPU_ReadMem(2 bytes @ 0x00000002) - Data: AA AA  returns 0xFFFFFFFF (0003ms, 1742ms total)
T4424 3865:174 JLINK_ReadMemEx(0x00000002, 0x0002 Bytes, ..., Flags = 0x02000000) -- CPU_ReadMem(2 bytes @ 0x00000002) - Data: AA AA  returns 0xFFFFFFFF (0004ms, 1746ms total)
T4424 3865:178 JLINK_ReadMemEx(0x00000002, 0x0002 Bytes, ..., Flags = 0x02000000) -- CPU_ReadMem(2 bytes @ 0x00000002) - Data: AA AA  returns 0xFFFFFFFF (0004ms, 1750ms total)
T4424 3865:182 JLINK_ReadMemEx(0x00000004, 0x003C Bytes, ..., Flags = 0x02000000) -- CPU_ReadMem(60 bytes @ 0x00000004) - Data: AA AA AA AA AA AA AA AA AA AA AA AA AA AA AA AA ...  returns 0xFFFFFFFF (0004ms, 1754ms total)
T4424 3865:186 JLINK_ReadMemEx(0x00000004, 0x003C Bytes, ..., Flags = 0x02000000) -- CPU_ReadMem(60 bytes @ 0x00000004) - Data: AA AA AA AA AA AA AA AA AA AA AA AA AA AA AA AA ...  returns 0xFFFFFFFF (0004ms, 1758ms total)
T4424 3865:190 JLINK_ReadMemEx(0x00000004, 0x003C Bytes, ..., Flags = 0x02000000) -- CPU_ReadMem(60 bytes @ 0x00000004) - Data: AA AA AA AA AA AA AA AA AA AA AA AA AA AA AA AA ...  returns 0xFFFFFFFF (0004ms, 1762ms total)
T4424 3865:194 JLINK_ReadMemEx(0x00000006, 0x0002 Bytes, ..., Flags = 0x02000000) -- CPU_ReadMem(2 bytes @ 0x00000006) - Data: AA AA  returns 0xFFFFFFFF (0004ms, 1766ms total)
T4424 3865:198 JLINK_ReadMemEx(0x00000006, 0x0002 Bytes, ..., Flags = 0x02000000) -- CPU_ReadMem(2 bytes @ 0x00000006) - Data: AA AA  returns 0xFFFFFFFF (0004ms, 1770ms total)
T4424 3865:202 JLINK_ReadMemEx(0x00000006, 0x0002 Bytes, ..., Flags = 0x02000000) -- CPU_ReadMem(2 bytes @ 0x00000006) - Data: AA AA  returns 0xFFFFFFFF (0004ms, 1774ms total)
T4424 3865:206 JLINK_ReadMemEx(0x00000008, 0x003C Bytes, ..., Flags = 0x02000000) -- CPU_ReadMem(60 bytes @ 0x00000008) - Data: AA AA AA AA AA AA AA AA AA AA AA AA AA AA AA AA ...  returns 0xFFFFFFFF (0004ms, 1778ms total)
T4424 3865:210 JLINK_ReadMemEx(0x00000008, 0x003C Bytes, ..., Flags = 0x02000000) -- CPU_ReadMem(60 bytes @ 0x00000008) - Data: AA AA AA AA AA AA AA AA AA AA AA AA AA AA AA AA ...  returns 0xFFFFFFFF (0004ms, 1782ms total)
T4424 3865:214 JLINK_ReadMemEx(0x00000008, 0x003C Bytes, ..., Flags = 0x02000000) -- CPU_ReadMem(60 bytes @ 0x00000008) - Data: AA AA AA AA AA AA AA AA AA AA AA AA AA AA AA AA ...  returns 0xFFFFFFFF (0004ms, 1786ms total)
T4424 3865:218 JLINK_ReadMemEx(0x0000000A, 0x0002 Bytes, ..., Flags = 0x02000000) -- CPU_ReadMem(2 bytes @ 0x0000000A) - Data: AA AA  returns 0xFFFFFFFF (0003ms, 1789ms total)
T4424 3865:221 JLINK_ReadMemEx(0x0000000A, 0x0002 Bytes, ..., Flags = 0x02000000) -- CPU_ReadMem(2 bytes @ 0x0000000A) - Data: AA AA  returns 0xFFFFFFFF (0004ms, 1793ms total)
T4424 3865:225 JLINK_ReadMemEx(0x0000000A, 0x0002 Bytes, ..., Flags = 0x02000000) -- CPU_ReadMem(2 bytes @ 0x0000000A) - Data: AA AA  returns 0xFFFFFFFF (0004ms, 1797ms total)
T4424 3865:229 JLINK_ReadMemEx(0x0000000C, 0x003C Bytes, ..., Flags = 0x02000000) -- CPU_ReadMem(60 bytes @ 0x0000000C) - Data: AA AA AA AA AA AA AA AA AA AA AA AA AA AA AA AA ...  returns 0xFFFFFFFF (0004ms, 1801ms total)
T4424 3865:233 JLINK_ReadMemEx(0x0000000C, 0x003C Bytes, ..., Flags = 0x02000000) -- CPU_ReadMem(60 bytes @ 0x0000000C) - Data: AA AA AA AA AA AA AA AA AA AA AA AA AA AA AA AA ...  returns 0xFFFFFFFF (0004ms, 1805ms total)
T4424 3865:237 JLINK_ReadMemEx(0x0000000C, 0x003C Bytes, ..., Flags = 0x02000000) -- CPU_ReadMem(60 bytes @ 0x0000000C) - Data: AA AA AA AA AA AA AA AA AA AA AA AA AA AA AA AA ...  returns 0xFFFFFFFF (0004ms, 1809ms total)
T46FC 3872:302 JLINK_ReadMemEx(0x00000000, 0x0002 Bytes, ..., Flags = 0x02000000) -- CPU_ReadMem(2 bytes @ 0x00000000) - Data: AA AA  returns 0xFFFFFFFF (0001ms, 1810ms total)
T46FC 3872:303 JLINK_Go()
  ***** Error: CPU is not halted (0002ms, 1812ms total)
T46FC 3872:408 JLINK_IsHalted()  returns ERROR (0001ms, 1813ms total)
T46FC 3872:409 JLINK_Halt()CPU could not be halted  returns 0x01 (0001ms, 1813ms total)
T46FC 3872:410 JLINK_IsHalted()  returns ERROR (0002ms, 1815ms total)
T46FC 3872:412 JLINK_IsHalted()  returns ERROR (0001ms, 1814ms total)
T46FC 3872:413 JLINK_IsHalted()  returns ERROR (0002ms, 1815ms total)
T46FC 3872:415 JLINK_ReadReg(R15 (PC)) -- CPU is running
  ***** Error: Can not read register 15 (R15) while CPU is running  returns 0x00000000 (0001ms, 1814ms total)
T46FC 3872:416 JLINK_ReadReg(XPSR) -- CPU is running
  ***** Error: Can not read register 16 (XPSR) while CPU is running  returns 0x00000000 (0002ms, 1816ms total)
T46FC 3872:418 JLINK_ReadMemU32(0xE000ED30, 0x0001 Items, ...) -- CPU_ReadMem(4 bytes @ 0xE000ED30)  returns 0xFFFFFFFF (0001ms, 1817ms total)
T46FC 3872:419 JLINK_ReadReg(R0) -- CPU is running
  ***** Error: Can not read register 0 (R0) while CPU is running  returns 0x00000000 (0001ms, 1818ms total)
T46FC 3872:420 JLINK_ReadReg(R1) -- CPU is running
  ***** Error: Can not read register 1 (R1) while CPU is running  returns 0x00000000 (0002ms, 1820ms total)
T46FC 3872:422 JLINK_ReadReg(R2) -- CPU is running
  ***** Error: Can not read register 2 (R2) while CPU is running  returns 0x00000000 (0001ms, 1821ms total)
T46FC 3872:424 JLINK_ReadReg(R3) -- CPU is running
  ***** Error: Can not read register 3 (R3) while CPU is running  returns 0x00000000 (0001ms, 1822ms total)
T46FC 3872:425 JLINK_ReadReg(R4) -- CPU is running
  ***** Error: Can not read register 4 (R4) while CPU is running  returns 0x00000000 (0002ms, 1824ms total)
T46FC 3872:427 JLINK_ReadReg(R5) -- CPU is running
  ***** Error: Can not read register 5 (R5) while CPU is running  returns 0x00000000 (0001ms, 1825ms total)
T46FC 3872:428 JLINK_ReadReg(R6) -- CPU is running
  ***** Error: Can not read register 6 (R6) while CPU is running  returns 0x00000000 (0002ms, 1827ms total)
T46FC 3872:431 JLINK_ReadReg(R7) -- CPU is running
  ***** Error: Can not read register 7 (R7) while CPU is running  returns 0x00000000 (0002ms, 1829ms total)
T46FC 3872:434 JLINK_ReadReg(R8) -- CPU is running
  ***** Error: Can not read register 8 (R8) while CPU is running  returns 0x00000000 (0001ms, 1830ms total)
T46FC 3872:436 JLINK_ReadReg(R9) -- CPU is running
  ***** Error: Can not read register 9 (R9) while CPU is running  returns 0x00000000 (0001ms, 1831ms total)
T46FC 3872:437 JLINK_ReadReg(R10) -- CPU is running
  ***** Error: Can not read register 10 (R10) while CPU is running  returns 0x00000000 (0002ms, 1833ms total)
T46FC 3872:439 JLINK_ReadReg(R11) -- CPU is running
  ***** Error: Can not read register 11 (R11) while CPU is running  returns 0x00000000 (0001ms, 1834ms total)
T46FC 3872:440 JLINK_ReadReg(R12) -- CPU is running
  ***** Error: Can not read register 12 (R12) while CPU is running  returns 0x00000000 (0002ms, 1836ms total)
T46FC 3872:442 JLINK_ReadReg(R13 (SP)) -- CPU is running
  ***** Error: Can not read register 13 (R13) while CPU is running  returns 0x00000000 (0002ms, 1838ms total)
T46FC 3872:444 JLINK_ReadReg(R14) -- CPU is running
  ***** Error: Can not read register 14 (R14) while CPU is running  returns 0x00000000 (0001ms, 1839ms total)
T46FC 3872:445 JLINK_ReadReg(R15 (PC)) -- CPU is running
  ***** Error: Can not read register 15 (R15) while CPU is running  returns 0x00000000 (0002ms, 1841ms total)
T46FC 3872:447 JLINK_ReadReg(XPSR) -- CPU is running
  ***** Error: Can not read register 16 (XPSR) while CPU is running  returns 0x00000000 (0002ms, 1843ms total)
T46FC 3872:450 JLINK_ReadReg(MSP) -- CPU is running
  ***** Error: Can not read register 17 (MSP) while CPU is running  returns 0x00000000 (0001ms, 1844ms total)
T46FC 3872:452 JLINK_ReadReg(PSP) -- CPU is running
  ***** Error: Can not read register 18 (PSP) while CPU is running  returns 0x00000000 (0001ms, 1845ms total)
T46FC 3872:453 JLINK_ReadReg(CFBP) -- CPU is running
  ***** Error: Can not read register 20 (CFBP) while CPU is running  returns 0x00000000 (0002ms, 1847ms total)
T4424 3872:455 JLINK_ReadMemEx(0x20000000, 0x0001 Bytes, ..., Flags = 0x02000000) -- CPU_ReadMem(1 bytes @ 0x20000000) - Data: AA  returns 0xFFFFFFFF (0001ms, 1848ms total)
T4424 3872:457 JLINK_ReadMemEx(0x20000004, 0x0002 Bytes, ..., Flags = 0x02000000) -- CPU_ReadMem(2 bytes @ 0x20000004) - Data: AA AA  returns 0xFFFFFFFF (0000ms, 1848ms total)
T4424 3872:457 JLINK_ReadMemEx(0x20000006, 0x0002 Bytes, ..., Flags = 0x02000000) -- CPU_ReadMem(2 bytes @ 0x20000006) - Data: AA AA  returns 0xFFFFFFFF (0001ms, 1849ms total)
T4424 3872:458 JLINK_ReadMemEx(0x20000002, 0x0001 Bytes, ..., Flags = 0x02000000) -- CPU_ReadMem(1 bytes @ 0x20000002) - Data: AA  returns 0xFFFFFFFF (0001ms, 1850ms total)
T4424 3872:459 JLINK_ReadMemEx(0x40012400, 0x0014 Bytes, ..., Flags = 0x02000004) -- CPU_ReadMem(20 bytes @ 0x40012400) - Data: AA AA AA AA AA AA AA AA AA AA AA AA AA AA AA AA ...  returns 0xFFFFFFFF (0001ms, 1851ms total)
T4424 3872:460 JLINK_ReadMemEx(0x40012400, 0x0004 Bytes, ..., Flags = 0x02000004) -- CPU_ReadMem(4 bytes @ 0x40012400) - Data: AA AA AA AA  returns 0xFFFFFFFF (0001ms, 1852ms total)
T4424 3872:461 JLINK_ReadMemEx(0x40012404, 0x0004 Bytes, ..., Flags = 0x02000004) -- CPU_ReadMem(4 bytes @ 0x40012404) - Data: AA AA AA AA  returns 0xFFFFFFFF (0000ms, 1852ms total)
T4424 3872:461 JLINK_ReadMemEx(0x40012408, 0x0004 Bytes, ..., Flags = 0x02000004) -- CPU_ReadMem(4 bytes @ 0x40012408) - Data: AA AA AA AA  returns 0xFFFFFFFF (0001ms, 1853ms total)
T4424 3872:462 JLINK_ReadMemEx(0x4001240C, 0x0004 Bytes, ..., Flags = 0x02000004) -- CPU_ReadMem(4 bytes @ 0x4001240C) - Data: AA AA AA AA  returns 0xFFFFFFFF (0001ms, 1854ms total)
T4424 3872:463 JLINK_ReadMemEx(0x40012410, 0x0004 Bytes, ..., Flags = 0x02000004) -- CPU_ReadMem(4 bytes @ 0x40012410) - Data: AA AA AA AA  returns 0xFFFFFFFF (0000ms, 1854ms total)
T4424 3872:463 JLINK_ReadMemEx(0x40012414, 0x0004 Bytes, ..., Flags = 0x02000004) -- CPU_ReadMem(4 bytes @ 0x40012414) - Data: AA AA AA AA  returns 0xFFFFFFFF (0001ms, 1855ms total)
T4424 3872:464 JLINK_ReadMemEx(0x40012414, 0x0004 Bytes, ..., Flags = 0x02000004) -- CPU_ReadMem(4 bytes @ 0x40012414) - Data: AA AA AA AA  returns 0xFFFFFFFF (0001ms, 1856ms total)
T4424 3872:465 JLINK_ReadMemEx(0x40012420, 0x0004 Bytes, ..., Flags = 0x02000004) -- CPU_ReadMem(4 bytes @ 0x40012420) - Data: AA AA AA AA  returns 0xFFFFFFFF (0000ms, 1856ms total)
T4424 3872:465 JLINK_ReadMemEx(0x40012420, 0x0004 Bytes, ..., Flags = 0x02000004) -- CPU_ReadMem(4 bytes @ 0x40012420) - Data: AA AA AA AA  returns 0xFFFFFFFF (0001ms, 1857ms total)
T4424 3872:466 JLINK_ReadMemEx(0x40012428, 0x0004 Bytes, ..., Flags = 0x02000004) -- CPU_ReadMem(4 bytes @ 0x40012428) - Data: AA AA AA AA  returns 0xFFFFFFFF (0001ms, 1858ms total)
T4424 3872:467 JLINK_ReadMemEx(0x40012428, 0x0004 Bytes, ..., Flags = 0x02000004) -- CPU_ReadMem(4 bytes @ 0x40012428) - Data: AA AA AA AA  returns 0xFFFFFFFF (0001ms, 1859ms total)
T4424 3872:468 JLINK_ReadMemEx(0x40012440, 0x0004 Bytes, ..., Flags = 0x02000004) -- CPU_ReadMem(4 bytes @ 0x40012440) - Data: AA AA AA AA  returns 0xFFFFFFFF (0000ms, 1859ms total)
T4424 3872:468 JLINK_ReadMemEx(0x40012440, 0x0004 Bytes, ..., Flags = 0x02000004) -- CPU_ReadMem(4 bytes @ 0x40012440) - Data: AA AA AA AA  returns 0xFFFFFFFF (0001ms, 1860ms total)
T4424 3872:469 JLINK_ReadMemEx(0x40012708, 0x0004 Bytes, ..., Flags = 0x02000004) -- CPU_ReadMem(4 bytes @ 0x40012708) - Data: AA AA AA AA  returns 0xFFFFFFFF (0000ms, 1860ms total)
T4424 3872:469 JLINK_ReadMemEx(0x40012708, 0x0004 Bytes, ..., Flags = 0x02000004) -- CPU_ReadMem(4 bytes @ 0x40012708) - Data: AA AA AA AA  returns 0xFFFFFFFF (0001ms, 1861ms total)
T4424 3873:173 JLINK_SetResetType(JLINKARM_CM3_RESET_TYPE_NORMAL)  returns JLINKARM_CM3_RESET_TYPE_NORMAL (0000ms, 1861ms total)
T4424 3873:173 JLINK_Reset() -- CPU is running -- CPU_WriteMem(4 bytes @ 0xE000EDF0) -- CPU is running -- CPU_WriteMem(4 bytes @ 0xE000EDFC)Reset: Halt core after reset via DEMCR.VC_CORERESET. >0x35 TIF>Reset: Reset device via AIRCR.SYSRESETREQ. -- CPU is running -- CPU_WriteMem(4 bytes @ 0xE000ED0C) >0x0D TIF> >0x28 TIF> -- CPU_ReadMem(4 bytes @ 0xE000EDF0) -- CPU_ReadMem(4 bytes @ 0xE000EDF0) -- CPU is running -- CPU_WriteMem(4 bytes @ 0xE000EDF0) -- CPU is running -- CPU_WriteMem(4 bytes @ 0xE000EDFC)
 -- CPU_ReadMem(4 bytes @ 0xE000EDF0) -- CPU_WriteMem(4 bytes @ 0xE0002000) -- CPU_ReadMem(4 bytes @ 0xE000EDFC) -- CPU_ReadMem(4 bytes @ 0xE0001000) -- CPU_WriteMem(4 bytes @ 0xE0001000) (0077ms, 1938ms total)
T4424 3873:251 JLINK_ReadReg(R15 (PC))  returns 0x08000842 (0000ms, 1938ms total)
T4424 3873:251 JLINK_ReadReg(XPSR)  returns 0x21000000 (0000ms, 1938ms total)
T4424 3873:251 JLINK_ReadReg(R0)  returns 0x0000094F (0000ms, 1938ms total)
T4424 3873:251 JLINK_ReadReg(R1)  returns 0x200004B8 (0000ms, 1938ms total)
T4424 3873:251 JLINK_ReadReg(R2)  returns 0x00000000 (0000ms, 1938ms total)
T4424 3873:251 JLINK_ReadReg(R3)  returns 0x00000000 (0000ms, 1938ms total)
T4424 3873:251 JLINK_ReadReg(R4)  returns 0x00000BB9 (0000ms, 1938ms total)
T4424 3873:251 JLINK_ReadReg(R5)  returns 0x00000000 (0000ms, 1938ms total)
T4424 3873:251 JLINK_ReadReg(R6)  returns 0x08001E54 (0000ms, 1938ms total)
T4424 3873:251 JLINK_ReadReg(R7)  returns 0xFFFFFFFF (0000ms, 1938ms total)
T4424 3873:251 JLINK_ReadReg(R8)  returns 0xFFFFFFFF (0000ms, 1938ms total)
T4424 3873:251 JLINK_ReadReg(R9)  returns 0xFFFFFFFF (0000ms, 1938ms total)
T4424 3873:251 JLINK_ReadReg(R10)  returns 0xFFFFFFFF (0000ms, 1938ms total)
T4424 3873:251 JLINK_ReadReg(R11)  returns 0xFFFFFFFF (0000ms, 1938ms total)
T4424 3873:251 JLINK_ReadReg(R12)  returns 0xFFFFFFFF (0000ms, 1938ms total)
T4424 3873:251 JLINK_ReadReg(R13 (SP))  returns 0x200004B8 (0000ms, 1938ms total)
T4424 3873:251 JLINK_ReadReg(R14)  returns 0x08000841 (0000ms, 1938ms total)
T4424 3873:251 JLINK_ReadReg(R15 (PC))  returns 0x08000842 (0000ms, 1938ms total)
T4424 3873:251 JLINK_ReadReg(XPSR)  returns 0x21000000 (0000ms, 1938ms total)
T4424 3873:251 JLINK_ReadReg(MSP)  returns 0x200004B8 (0000ms, 1938ms total)
T4424 3873:251 JLINK_ReadReg(PSP)  returns 0xFFFFFFFC (0000ms, 1938ms total)
T4424 3873:251 JLINK_ReadReg(CFBP)  returns 0x00000000 (0000ms, 1938ms total)
T4424 3873:407 JLINK_ReadMemEx(0x08000842, 0x0002 Bytes, ..., Flags = 0x02000000) -- CPU_ReadMem(2 bytes @ 0x08000842) - Data: A0 42  returns 0x02 (0001ms, 1939ms total)
T4424 3873:408 JLINK_ReadMemEx(0x08000844, 0x003C Bytes, ..., Flags = 0x02000000) -- CPU_ReadMem(60 bytes @ 0x08000844) - Data: FA D3 38 BD 10 B5 04 46 01 21 33 48 00 F0 76 F9 ...  returns 0x3C (0002ms, 1941ms total)
T4424 3873:415 JLINK_ReadMemEx(0x0800083A, 0x0002 Bytes, ..., Flags = 0x02000000) -- CPU_ReadMem(2 bytes @ 0x0800083A) - Data: 00 BF  returns 0x02 (0001ms, 1942ms total)
T4424 3873:416 JLINK_ReadMemEx(0x0800083C, 0x003C Bytes, ..., Flags = 0x02000000) -- CPU_ReadMem(60 bytes @ 0x0800083C) - Data: 00 F0 90 F9 40 1B A0 42 FA D3 38 BD 10 B5 04 46 ...  returns 0x3C (0002ms, 1944ms total)
T4424 3873:437 JLINK_ReadMemEx(0x20000000, 0x0001 Bytes, ..., Flags = 0x02000000) -- CPU_ReadMem(1 bytes @ 0x20000000) - Data: 00  returns 0x01 (0000ms, 1944ms total)
T4424 3873:438 JLINK_ReadMemEx(0x20000004, 0x0002 Bytes, ..., Flags = 0x02000000) -- CPU_ReadMem(2 bytes @ 0x20000004) - Data: 00 00  returns 0x02 (0001ms, 1945ms total)
T4424 3873:439 JLINK_ReadMemEx(0x20000006, 0x0002 Bytes, ..., Flags = 0x02000000) -- CPU_ReadMem(2 bytes @ 0x20000006) - Data: 00 00  returns 0x02 (0001ms, 1946ms total)
T4424 3873:440 JLINK_ReadMemEx(0x20000002, 0x0001 Bytes, ..., Flags = 0x02000000) -- CPU_ReadMem(1 bytes @ 0x20000002) - Data: 00  returns 0x01 (0001ms, 1947ms total)
T46FC 3874:977 JLINK_ReadMemEx(0x08000842, 0x0002 Bytes, ..., Flags = 0x02000000) -- CPU_ReadMem(2 bytes @ 0x08000842) - Data: A0 42  returns 0x02 (0000ms, 1947ms total)
T46FC 3874:977 JLINK_Go() -- CPU_ReadMem(4 bytes @ 0xE0001000) -- CPU_WriteMem(4 bytes @ 0xE0001000) -- CPU_WriteMem(4 bytes @ 0xE0002008) -- CPU_WriteMem(4 bytes @ 0xE000200C) -- CPU_WriteMem(4 bytes @ 0xE0002010) -- CPU_WriteMem(4 bytes @ 0xE0002014) -- CPU_WriteMem(4 bytes @ 0xE0001004) (0007ms, 1954ms total)
T46FC 3875:085 JLINK_IsHalted()  returns FALSE (0000ms, 1954ms total)
T46FC 3875:187 JLINK_IsHalted()  returns FALSE (0000ms, 1954ms total)
T46FC 3875:289 JLINK_IsHalted()  returns FALSE (0000ms, 1954ms total)
T46FC 3875:390 JLINK_IsHalted()  returns FALSE (0000ms, 1954ms total)
T4424 3875:492 JLINK_ReadMemEx(0x20000000, 0x0001 Bytes, ..., Flags = 0x02000000) -- CPU_ReadMem(1 bytes @ 0x20000000) - Data: 00  returns 0x01 (0001ms, 1955ms total)
T4424 3875:493 JLINK_ReadMemEx(0x20000004, 0x0002 Bytes, ..., Flags = 0x02000000) -- CPU_ReadMem(2 bytes @ 0x20000004) - Data: 00 00  returns 0x02 (0001ms, 1956ms total)
T4424 3875:494 JLINK_ReadMemEx(0x20000006, 0x0002 Bytes, ..., Flags = 0x02000000) -- CPU_ReadMem(2 bytes @ 0x20000006) - Data: 00 00  returns 0x02 (0001ms, 1957ms total)
T4424 3875:495 JLINK_ReadMemEx(0x20000002, 0x0001 Bytes, ..., Flags = 0x02000000) -- CPU_ReadMem(1 bytes @ 0x20000002) - Data: 00  returns 0x01 (0000ms, 1957ms total)
T4424 3875:495 JLINK_ReadMemEx(0x40012400, 0x0014 Bytes, ..., Flags = 0x02000004) -- CPU_ReadMem(20 bytes @ 0x40012400) - Data: 00 00 00 00 00 00 00 00 00 00 00 00 10 04 00 00 ...  returns 0x14 (0002ms, 1959ms total)
T4424 3875:497 JLINK_ReadMemEx(0x40012414, 0x0004 Bytes, ..., Flags = 0x02000004) -- CPU_ReadMem(4 bytes @ 0x40012414) - Data: 07 00 00 00  returns 0x04 (0000ms, 1959ms total)
T4424 3875:497 JLINK_ReadMemEx(0x40012420, 0x0004 Bytes, ..., Flags = 0x02000004) -- CPU_ReadMem(4 bytes @ 0x40012420) - Data: 00 00 FF 0F  returns 0x04 (0001ms, 1960ms total)
T4424 3875:498 JLINK_ReadMemEx(0x40012428, 0x0004 Bytes, ..., Flags = 0x02000004) -- CPU_ReadMem(4 bytes @ 0x40012428) - Data: 01 00 00 00  returns 0x04 (0001ms, 1961ms total)
T4424 3875:499 JLINK_ReadMemEx(0x40012440, 0x0004 Bytes, ..., Flags = 0x02000004) -- CPU_ReadMem(4 bytes @ 0x40012440) - Data: 00 00 00 00  returns 0x04 (0001ms, 1962ms total)
T4424 3875:500 JLINK_ReadMemEx(0x40012708, 0x0004 Bytes, ..., Flags = 0x02000004) -- CPU_ReadMem(4 bytes @ 0x40012708) - Data: 00 00 00 00  returns 0x04 (0001ms, 1963ms total)
T46FC 3875:532 JLINK_IsHalted()  returns FALSE (0001ms, 1964ms total)
T46FC 3875:633 JLINK_IsHalted()  returns FALSE (0000ms, 1963ms total)
T46FC 3875:735 JLINK_IsHalted()  returns FALSE (0000ms, 1963ms total)
T46FC 3875:836 JLINK_IsHalted()  returns FALSE (0000ms, 1963ms total)
T46FC 3875:938 JLINK_IsHalted()  returns FALSE (0000ms, 1963ms total)
T4424 3876:040 JLINK_ReadMemEx(0x20000000, 0x0001 Bytes, ..., Flags = 0x02000000) -- CPU_ReadMem(1 bytes @ 0x20000000) - Data: 7A  returns 0x01 (0001ms, 1964ms total)
T4424 3876:042 JLINK_ReadMemEx(0x20000004, 0x0002 Bytes, ..., Flags = 0x02000000) -- CPU_ReadMem(2 bytes @ 0x20000004) - Data: 00 00  returns 0x02 (0000ms, 1964ms total)
T4424 3876:042 JLINK_ReadMemEx(0x20000006, 0x0002 Bytes, ..., Flags = 0x02000000) -- CPU_ReadMem(2 bytes @ 0x20000006) - Data: 00 00  returns 0x02 (0001ms, 1965ms total)
T4424 3876:043 JLINK_ReadMemEx(0x20000002, 0x0001 Bytes, ..., Flags = 0x02000000) -- CPU_ReadMem(1 bytes @ 0x20000002) - Data: 00  returns 0x01 (0001ms, 1966ms total)
T4424 3876:044 JLINK_ReadMemEx(0x40012400, 0x0014 Bytes, ..., Flags = 0x02000004) -- CPU_ReadMem(20 bytes @ 0x40012400) - Data: 03 00 00 00 1C 00 00 00 05 00 00 00 10 04 00 00 ...  returns 0x14 (0001ms, 1967ms total)
T4424 3876:045 JLINK_ReadMemEx(0x40012414, 0x0004 Bytes, ..., Flags = 0x02000004) -- CPU_ReadMem(4 bytes @ 0x40012414) - Data: 07 00 00 00  returns 0x04 (0001ms, 1968ms total)
